T438C 075:088 SEGGER J-Link V4.86b Log File (0000ms, 0392ms total)
T438C 075:088 DLL Compiled: Jun 27 2014 20:11:00 (0000ms, 0392ms total)
T438C 075:088 Logging started @ 2023-01-13 14:15 (0000ms, 0392ms total)
T438C 075:088 JLINK_SetWarnOutHandler(...) (0000ms, 0392ms total)
T438C 075:088 JLINK_OpenEx(...)
Firmware: J-Link V9 compiled May  7 2021 16:26:12
Hardware: V9.30
S/N: 36310083
Feature(s): RDI, GDB, FlashDL, FlashBP, JFlash  returns O.K. (0258ms, 0650ms total)
T438C 075:346 JLINK_GetEmuCaps()  returns 0xB9FF7BBF (0000ms, 0650ms total)
T438C 075:346 JLINK_TIF_GetAvailable(...) (0000ms, 0650ms total)
T438C 075:346 JLINK_SetErrorOutHandler(...) (0000ms, 0650ms total)
T438C 075:346 JLINK_ExecCommand("ProjectFile = "D:\×ÀÃæ\Ñ§Ï°¼ÇÂ¼\Fwlib-DMA-MToM\Project\JLinkSettings.ini"", ...)  returns 0x00 (0000ms, 0650ms total)
T438C 075:352 JLINK_ExecCommand("Device = STM32F103ZE", ...)Device "STM32F103ZE" selected (512 KB flash, 64 KB RAM).  returns 0x00 (0006ms, 0656ms total)
T438C 075:358 JLINK_ExecCommand("DisableConnectionTimeout", ...)  returns 0x01 (0000ms, 0656ms total)
T438C 075:358 JLINK_GetHardwareVersion()  returns 0x16B48 (0000ms, 0656ms total)
T438C 075:358 JLINK_GetDLLVersion()  returns 48602 (0000ms, 0656ms total)
T438C 075:358 JLINK_GetFirmwareString(...) (0000ms, 0656ms total)
T438C 075:381 JLINK_GetDLLVersion()  returns 48602 (0000ms, 0656ms total)
T438C 075:381 JLINK_GetCompileDateTime() (0000ms, 0656ms total)
T438C 075:387 JLINK_GetFirmwareString(...) (0000ms, 0656ms total)
T438C 075:390 JLINK_GetHardwareVersion()  returns 0x16B48 (0000ms, 0656ms total)
T438C 075:402 JLINK_TIF_Select(JLINKARM_TIF_SWD)  returns 0x00 (0001ms, 0657ms total)
T438C 075:403 JLINK_SetSpeed(5000) (0000ms, 0657ms total)
T438C 075:403 JLINK_GetId() >0x108 TIF>Found SWD-DP with ID 0x1BA01477 >0x0D TIF> >0x28 TIF> >0x0D TIF> >0x28 TIF> >0x0D TIF> >0x21 TIF> >0x0D TIF> >0x28 TIF> >0x0D TIF> >0x28 TIF> >0x0D TIF> >0x28 TIF> >0x0D TIF> >0x21 TIF> >0x0D TIF> >0x21 TIF> >0x0D TIF> >0x28 TIF> >0x0D TIF> >0x21 TIF> >0x0D TIF> >0x21 TIF> >0x108 TIF>Found SWD-DP with ID 0x1BA01477 >0x0D TIF> >0x21 TIF> >0x0D TIF> >0x28 TIF> >0x0D TIF> >0x28 TIF> >0x0D TIF> >0x21 TIF> >0x0D TIF> >0x28 TIF> >0x0D TIF> >0x21 TIF> >0x0D TIF> >0x21 TIF>
 >0x0D TIF> >0x21 TIF> >0x0D TIF> >0x21 TIF> >0x0D TIF> >0x28 TIF> >0x0D TIF> >0x28 TIF> >0x0D TIF> >0x21 TIF> >0x0D TIF> >0x28 TIF> >0x0D TIF> >0x28 TIF> >0x0D TIF> >0x28 TIF> >0x0D TIF> >0x21 TIF> >0x0D TIF> >0x21 TIF> >0x0D TIF> >0x28 TIF> >0x0D TIF> >0x21 TIF> >0x0D TIF> >0x21 TIF>Found Cortex-M3 r1p1, Little endian. -- CPU_WriteMem(4 bytes @ 0xE0002000) -- CPU_ReadMem(4 bytes @ 0xE000EDF0) -- CPU_ReadMem(4 bytes @ 0xE0002000)FPUnit: 6 code (BP) slots and 2 literal slots
 -- CPU_ReadMem(4 bytes @ 0xE000EDFC) -- CPU_ReadMem(4 bytes @ 0xE0001000) -- CPU_WriteMem(4 bytes @ 0xE0001000) -- CPU_ReadMem(4 bytes @ 0xE00FF010)TPIU fitted. -- CPU_ReadMem(4 bytes @ 0xE00FF014)ETM fitted. -- CPU_ReadMem(4 bytes @ 0xE00FF018) >0x0D TIF> >0x21 TIF>  returns 0x1BA01477 (0034ms, 0691ms total)
T438C 075:437 JLINK_GetDLLVersion()  returns 48602 (0000ms, 0691ms total)
T438C 075:437 JLINK_CORE_GetFound()  returns 0x30000FF (0001ms, 0692ms total)
T438C 075:440 JLINK_GetDebugInfo(0x100) -- Value=0xE00FF003  returns 0x00 (0000ms, 0692ms total)
T438C 075:440 JLINK_GetDebugInfo(0x101)  returns 0xFFFFFFFF (0000ms, 0692ms total)
T438C 075:440 JLINK_ReadMemEx(0xE0041FF0, 0x0010 Bytes, ..., AccessWidth = 33554436) -- CPU is running -- CPU_ReadMem(16 bytes @ 0xE0041FF0) - Data: 0D 00 00 00 90 00 00 00 05 00 00 00 B1 00 00 00  returns 0x10 (0000ms, 0692ms total)
T438C 075:440 JLINK_ReadMemEx(0xE0041FD0, 0x0020 Bytes, ..., AccessWidth = 33554436) -- CPU is running -- CPU_ReadMem(32 bytes @ 0xE0041FD0) - Data: 04 00 00 00 00 00 00 00 00 00 00 00 00 00 00 00 ...  returns 0x20 (0001ms, 0693ms total)
T438C 075:441 JLINK_GetDebugInfo(0x102)  returns 0xFFFFFFFF (0000ms, 0693ms total)
T438C 075:441 JLINK_GetDebugInfo(0x103)  returns 0xFFFFFFFF (0000ms, 0693ms total)
T438C 075:441 JLINK_ReadMemEx(0xE0040FF0, 0x0010 Bytes, ..., AccessWidth = 33554436) -- CPU is running -- CPU_ReadMem(16 bytes @ 0xE0040FF0) - Data: 0D 00 00 00 90 00 00 00 05 00 00 00 B1 00 00 00  returns 0x10 (0000ms, 0693ms total)
T438C 075:441 JLINK_GetDebugInfo(0x104)  returns 0xFFFFFFFF (0000ms, 0693ms total)
T438C 075:441 JLINK_GetDebugInfo(0x105)  returns 0xFFFFFFFF (0000ms, 0693ms total)
T438C 075:441 JLINK_GetDebugInfo(0x106)  returns 0xFFFFFFFF (0000ms, 0693ms total)
T438C 075:441 JLINK_GetDebugInfo(0x107)  returns 0xFFFFFFFF (0000ms, 0693ms total)
T438C 075:441 JLINK_GetDebugInfo(0x10C)  returns 0xFFFFFFFF (0000ms, 0693ms total)
T438C 075:441 JLINK_GetDebugInfo(0x01)  returns 0xFFFFFFFF (0000ms, 0693ms total)
T438C 075:441 JLINK_GetDeviceFamily()  returns 3 (0000ms, 0693ms total)
T438C 075:441 JLINK_ReadMemU32(0xE000ED00, 0x0001 Items, ...) -- CPU is running -- CPU_ReadMem(4 bytes @ 0xE000ED00) - Data: 31 C2 1F 41  returns 0x01 (0001ms, 0694ms total)
T438C 075:442 JLINK_GetDebugInfo(0x10F)  returns 0xFFFFFFFF (0000ms, 0694ms total)
T438C 075:442 JLINK_SetResetType(JLINKARM_RESET_TYPE_NORMAL)  returns JLINKARM_RESET_TYPE_NORMAL (0000ms, 0694ms total)
T438C 075:442 JLINK_Reset() -- CPU is running -- CPU_WriteMem(4 bytes @ 0xE000EDF0) -- CPU is running -- CPU_WriteMem(4 bytes @ 0xE000EDFC) >0x35 TIF> -- CPU is running -- CPU_WriteMem(4 bytes @ 0xE000ED0C) -- CPU is running -- CPU_ReadMem(4 bytes @ 0xE000EDF0) -- CPU is running -- CPU_ReadMem(4 bytes @ 0xE000EDF0) -- CPU is running -- CPU_WriteMem(4 bytes @ 0xE000EDF0) -- CPU is running -- CPU_WriteMem(4 bytes @ 0xE000EDFC) -- CPU is running -- CPU_ReadMem(4 bytes @ 0xE000EDF0)
 -- CPU_WriteMem(4 bytes @ 0xE0002000) -- CPU_ReadMem(4 bytes @ 0xE000EDFC) -- CPU_ReadMem(4 bytes @ 0xE0001000) (0015ms, 0709ms total)
T438C 075:457 JLINK_Halt()  returns 0x00 (0000ms, 0709ms total)
T438C 075:457 JLINK_ReadMemU32(0xE000EDF0, 0x0001 Items, ...) -- CPU_ReadMem(4 bytes @ 0xE000EDF0) - Data: 03 00 03 00  returns 0x01 (0000ms, 0709ms total)
T438C 075:457 JLINK_WriteU32(0xE000EDF0, 0xA05F0003) -- CPU_WriteMem(4 bytes @ 0xE000EDF0)  returns 0x00 (0000ms, 0709ms total)
T438C 075:457 JLINK_WriteU32(0xE000EDFC, 0x01000000) -- CPU_WriteMem(4 bytes @ 0xE000EDFC)  returns 0x00 (0001ms, 0710ms total)
T438C 075:467 JLINK_GetHWStatus(...)  returns 0x00 (0001ms, 0711ms total)
T438C 075:474 JLINK_GetNumBPUnits(Type = 0xFFFFFF00)  returns 0x06 (0000ms, 0711ms total)
T438C 075:474 JLINK_GetNumBPUnits(Type = 0xF0)  returns 0x2000 (0000ms, 0711ms total)
T438C 075:474 JLINK_GetNumWPUnits()  returns 0x04 (0000ms, 0711ms total)
T438C 075:481 JLINK_GetSpeed()  returns 0xFA0 (0000ms, 0711ms total)
T438C 075:487 JLINK_ReadMemU32(0xE000E004, 0x0001 Items, ...) -- CPU_ReadMem(4 bytes @ 0xE000E004) - Data: 01 00 00 00  returns 0x01 (0001ms, 0712ms total)
T438C 075:488 JLINK_ReadMemU32(0xE000E004, 0x0001 Items, ...) -- CPU_ReadMem(4 bytes @ 0xE000E004) - Data: 01 00 00 00  returns 0x01 (0000ms, 0712ms total)
T438C 075:488 JLINK_WriteMemEx(0xE0001000, 0x001C Bytes, ..., AccessWidth = 33554436) - Data: 01 00 00 00 00 00 00 00 00 00 00 00 00 00 00 00 ... -- CPU_WriteMem(28 bytes @ 0xE0001000)  returns 0x1C (0000ms, 0712ms total)
T438C 075:488 JLINK_Halt()  returns 0x00 (0000ms, 0712ms total)
T438C 075:488 JLINK_IsHalted()  returns TRUE (0000ms, 0712ms total)
T438C 075:491 JLINK_WriteMem(0x20000000, 0x0164 Bytes, ...) - Data: 00 BE 0A E0 0D 78 2D 06 68 40 08 24 40 00 00 D3 ... -- CPU_WriteMem(356 bytes @ 0x20000000)  returns 0x164 (0002ms, 0714ms total)
T438C 075:493 JLINK_WriteReg(R0, 0x08000000)  returns 0x00 (0000ms, 0714ms total)
T438C 075:493 JLINK_WriteReg(R1, 0x00B71B00)  returns 0x00 (0000ms, 0714ms total)
T438C 075:493 JLINK_WriteReg(R2, 0x00000001)  returns 0x00 (0000ms, 0714ms total)
T438C 075:493 JLINK_WriteReg(R3, 0x00000000)  returns 0x00 (0000ms, 0714ms total)
T438C 075:493 JLINK_WriteReg(R4, 0x00000000)  returns 0x00 (0000ms, 0714ms total)
T438C 075:493 JLINK_WriteReg(R5, 0x00000000)  returns 0x00 (0000ms, 0714ms total)
T438C 075:493 JLINK_WriteReg(R6, 0x00000000)  returns 0x00 (0000ms, 0714ms total)
T438C 075:493 JLINK_WriteReg(R7, 0x00000000)  returns 0x00 (0000ms, 0714ms total)
T438C 075:493 JLINK_WriteReg(R8, 0x00000000)  returns 0x00 (0000ms, 0714ms total)
T438C 075:493 JLINK_WriteReg(R9, 0x20000160)  returns 0x00 (0000ms, 0714ms total)
T438C 075:493 JLINK_WriteReg(R10, 0x00000000)  returns 0x00 (0000ms, 0714ms total)
T438C 075:493 JLINK_WriteReg(R11, 0x00000000)  returns 0x00 (0000ms, 0714ms total)
T438C 075:493 JLINK_WriteReg(R12, 0x00000000)  returns 0x00 (0000ms, 0714ms total)
T438C 075:493 JLINK_WriteReg(R13 (SP), 0x20001000)  returns 0x00 (0000ms, 0714ms total)
T438C 075:493 JLINK_WriteReg(R14, 0x20000001)  returns 0x00 (0000ms, 0714ms total)
T438C 075:493 JLINK_WriteReg(R15 (PC), 0x20000038)  returns 0x00 (0000ms, 0714ms total)
T438C 075:493 JLINK_WriteReg(XPSR, 0x01000000)  returns 0x00 (0000ms, 0714ms total)
T438C 075:493 JLINK_WriteReg(MSP, 0x20001000)  returns 0x00 (0000ms, 0714ms total)
T438C 075:493 JLINK_WriteReg(PSP, 0x20001000)  returns 0x00 (0000ms, 0714ms total)
T438C 075:493 JLINK_WriteReg(CFBP, 0x00000000)  returns 0x00 (0000ms, 0714ms total)
T438C 075:493 JLINK_SetBPEx(Addr = 0x20000000, Type = 0xFFFFFFF2) -- CPU_ReadMem(2 bytes @ 0x20000000)  returns 0x00000001 (0001ms, 0715ms total)
T438C 075:494 JLINK_Go() -- CPU_WriteMem(2 bytes @ 0x20000000) -- CPU_WriteMem(4 bytes @ 0xE0002008) -- CPU_WriteMem(4 bytes @ 0xE000200C) -- CPU_WriteMem(4 bytes @ 0xE0002010) -- CPU_WriteMem(4 bytes @ 0xE0002014) -- CPU_WriteMem(4 bytes @ 0xE0002018) -- CPU_WriteMem(4 bytes @ 0xE000201C) -- CPU_WriteMem(4 bytes @ 0xE0001004) (0003ms, 0718ms total)
T438C 075:497 JLINK_IsHalted() -- CPU_ReadMem(2 bytes @ 0x20000000)  returns TRUE (0003ms, 0721ms total)
T438C 075:500 JLINK_ReadReg(R15 (PC))  returns 0x20000000 (0000ms, 0718ms total)
T438C 075:500 JLINK_ClrBPEx(BPHandle = 0x00000001)  returns 0x00 (0000ms, 0718ms total)
T438C 075:500 JLINK_ReadReg(R0)  returns 0x00000000 (0000ms, 0718ms total)
T438C 075:500 JLINK_WriteReg(R0, 0x08000000)  returns 0x00 (0000ms, 0718ms total)
T438C 075:500 JLINK_WriteReg(R1, 0x00000800)  returns 0x00 (0000ms, 0718ms total)
T438C 075:500 JLINK_WriteReg(R2, 0x000000FF)  returns 0x00 (0000ms, 0718ms total)
T438C 075:500 JLINK_WriteReg(R3, 0x00000000)  returns 0x00 (0000ms, 0718ms total)
T438C 075:500 JLINK_WriteReg(R4, 0x00000000)  returns 0x00 (0000ms, 0718ms total)
T438C 075:500 JLINK_WriteReg(R5, 0x00000000)  returns 0x00 (0000ms, 0718ms total)
T438C 075:500 JLINK_WriteReg(R6, 0x00000000)  returns 0x00 (0000ms, 0718ms total)
T438C 075:500 JLINK_WriteReg(R7, 0x00000000)  returns 0x00 (0000ms, 0718ms total)
T438C 075:500 JLINK_WriteReg(R8, 0x00000000)  returns 0x00 (0000ms, 0718ms total)
T438C 075:500 JLINK_WriteReg(R9, 0x20000160)  returns 0x00 (0000ms, 0718ms total)
T438C 075:500 JLINK_WriteReg(R10, 0x00000000)  returns 0x00 (0000ms, 0718ms total)
T438C 075:500 JLINK_WriteReg(R11, 0x00000000)  returns 0x00 (0000ms, 0718ms total)
T438C 075:500 JLINK_WriteReg(R12, 0x00000000)  returns 0x00 (0000ms, 0718ms total)
T438C 075:500 JLINK_WriteReg(R13 (SP), 0x20001000)  returns 0x00 (0000ms, 0718ms total)
T438C 075:500 JLINK_WriteReg(R14, 0x20000001)  returns 0x00 (0000ms, 0718ms total)
T438C 075:500 JLINK_WriteReg(R15 (PC), 0x20000020)  returns 0x00 (0001ms, 0719ms total)
T438C 075:501 JLINK_WriteReg(XPSR, 0x01000000)  returns 0x00 (0000ms, 0719ms total)
T438C 075:501 JLINK_WriteReg(MSP, 0x20001000)  returns 0x00 (0000ms, 0719ms total)
T438C 075:501 JLINK_WriteReg(PSP, 0x20001000)  returns 0x00 (0000ms, 0719ms total)
T438C 075:501 JLINK_WriteReg(CFBP, 0x00000000)  returns 0x00 (0000ms, 0719ms total)
T438C 075:501 JLINK_SetBPEx(Addr = 0x20000000, Type = 0xFFFFFFF2)  returns 0x00000002 (0000ms, 0719ms total)
T438C 075:501 JLINK_Go() (0001ms, 0720ms total)
T438C 075:502 JLINK_IsHalted() -- CPU_ReadMem(2 bytes @ 0x20000000)  returns TRUE (0002ms, 0722ms total)
T438C 075:504 JLINK_ReadReg(R15 (PC))  returns 0x20000000 (0000ms, 0720ms total)
T438C 075:504 JLINK_ClrBPEx(BPHandle = 0x00000002)  returns 0x00 (0000ms, 0720ms total)
T438C 075:504 JLINK_ReadReg(R0)  returns 0x00000001 (0000ms, 0720ms total)
T438C 075:504 JLINK_WriteReg(R0, 0x08000000)  returns 0x00 (0000ms, 0720ms total)
T438C 075:504 JLINK_WriteReg(R1, 0x00000800)  returns 0x00 (0000ms, 0720ms total)
T438C 075:504 JLINK_WriteReg(R2, 0x000000FF)  returns 0x00 (0000ms, 0720ms total)
T438C 075:504 JLINK_WriteReg(R3, 0x00000000)  returns 0x00 (0000ms, 0720ms total)
T438C 075:504 JLINK_WriteReg(R4, 0x00000000)  returns 0x00 (0000ms, 0720ms total)
T438C 075:504 JLINK_WriteReg(R5, 0x00000000)  returns 0x00 (0000ms, 0720ms total)
T438C 075:504 JLINK_WriteReg(R6, 0x00000000)  returns 0x00 (0000ms, 0720ms total)
T438C 075:504 JLINK_WriteReg(R7, 0x00000000)  returns 0x00 (0000ms, 0720ms total)
T438C 075:504 JLINK_WriteReg(R8, 0x00000000)  returns 0x00 (0000ms, 0720ms total)
T438C 075:504 JLINK_WriteReg(R9, 0x20000160)  returns 0x00 (0000ms, 0720ms total)
T438C 075:504 JLINK_WriteReg(R10, 0x00000000)  returns 0x00 (0000ms, 0720ms total)
T438C 075:504 JLINK_WriteReg(R11, 0x00000000)  returns 0x00 (0000ms, 0720ms total)
T438C 075:504 JLINK_WriteReg(R12, 0x00000000)  returns 0x00 (0000ms, 0720ms total)
T438C 075:504 JLINK_WriteReg(R13 (SP), 0x20001000)  returns 0x00 (0000ms, 0720ms total)
T438C 075:504 JLINK_WriteReg(R14, 0x20000001)  returns 0x00 (0000ms, 0720ms total)
T438C 075:504 JLINK_WriteReg(R15 (PC), 0x200000B6)  returns 0x00 (0000ms, 0720ms total)
T438C 075:504 JLINK_WriteReg(XPSR, 0x01000000)  returns 0x00 (0000ms, 0720ms total)
T438C 075:504 JLINK_WriteReg(MSP, 0x20001000)  returns 0x00 (0000ms, 0720ms total)
T438C 075:504 JLINK_WriteReg(PSP, 0x20001000)  returns 0x00 (0000ms, 0720ms total)
T438C 075:504 JLINK_WriteReg(CFBP, 0x00000000)  returns 0x00 (0000ms, 0720ms total)
T438C 075:504 JLINK_SetBPEx(Addr = 0x20000000, Type = 0xFFFFFFF2)  returns 0x00000003 (0000ms, 0720ms total)
T438C 075:504 JLINK_Go() (0001ms, 0721ms total)
T438C 075:505 JLINK_IsHalted()  returns FALSE (0001ms, 0722ms total)
T438C 075:546 JLINK_IsHalted() -- CPU_ReadMem(2 bytes @ 0x20000000)  returns TRUE (0002ms, 0723ms total)
T438C 075:548 JLINK_ReadReg(R15 (PC))  returns 0x20000000 (0000ms, 0721ms total)
T438C 075:548 JLINK_ClrBPEx(BPHandle = 0x00000003)  returns 0x00 (0000ms, 0721ms total)
T438C 075:548 JLINK_ReadReg(R0)  returns 0x00000000 (0000ms, 0721ms total)
T438C 075:549 JLINK_WriteReg(R0, 0x00000001)  returns 0x00 (0000ms, 0721ms total)
T438C 075:549 JLINK_WriteReg(R1, 0x00000800)  returns 0x00 (0000ms, 0721ms total)
T438C 075:549 JLINK_WriteReg(R2, 0x000000FF)  returns 0x00 (0000ms, 0721ms total)
T438C 075:549 JLINK_WriteReg(R3, 0x00000000)  returns 0x00 (0000ms, 0721ms total)
T438C 075:549 JLINK_WriteReg(R4, 0x00000000)  returns 0x00 (0000ms, 0721ms total)
T438C 075:549 JLINK_WriteReg(R5, 0x00000000)  returns 0x00 (0000ms, 0721ms total)
T438C 075:549 JLINK_WriteReg(R6, 0x00000000)  returns 0x00 (0000ms, 0721ms total)
T438C 075:549 JLINK_WriteReg(R7, 0x00000000)  returns 0x00 (0000ms, 0721ms total)
T438C 075:549 JLINK_WriteReg(R8, 0x00000000)  returns 0x00 (0000ms, 0721ms total)
T438C 075:549 JLINK_WriteReg(R9, 0x20000160)  returns 0x00 (0000ms, 0721ms total)
T438C 075:549 JLINK_WriteReg(R10, 0x00000000)  returns 0x00 (0000ms, 0721ms total)
T438C 075:549 JLINK_WriteReg(R11, 0x00000000)  returns 0x00 (0000ms, 0721ms total)
T438C 075:549 JLINK_WriteReg(R12, 0x00000000)  returns 0x00 (0000ms, 0721ms total)
T438C 075:549 JLINK_WriteReg(R13 (SP), 0x20001000)  returns 0x00 (0000ms, 0721ms total)
T438C 075:549 JLINK_WriteReg(R14, 0x20000001)  returns 0x00 (0000ms, 0721ms total)
T438C 075:549 JLINK_WriteReg(R15 (PC), 0x2000006A)  returns 0x00 (0000ms, 0721ms total)
T438C 075:549 JLINK_WriteReg(XPSR, 0x01000000)  returns 0x00 (0000ms, 0721ms total)
T438C 075:549 JLINK_WriteReg(MSP, 0x20001000)  returns 0x00 (0000ms, 0721ms total)
T438C 075:549 JLINK_WriteReg(PSP, 0x20001000)  returns 0x00 (0000ms, 0721ms total)
T438C 075:549 JLINK_WriteReg(CFBP, 0x00000000)  returns 0x00 (0000ms, 0721ms total)
T438C 075:549 JLINK_SetBPEx(Addr = 0x20000000, Type = 0xFFFFFFF2)  returns 0x00000004 (0000ms, 0721ms total)
T438C 075:549 JLINK_Go() (0001ms, 0722ms total)
T438C 075:550 JLINK_IsHalted() -- CPU_ReadMem(2 bytes @ 0x20000000)  returns TRUE (0002ms, 0724ms total)
T438C 075:552 JLINK_ReadReg(R15 (PC))  returns 0x20000000 (0000ms, 0722ms total)
T438C 075:552 JLINK_ClrBPEx(BPHandle = 0x00000004)  returns 0x00 (0000ms, 0722ms total)
T438C 075:552 JLINK_ReadReg(R0)  returns 0x00000000 (0000ms, 0722ms total)
T438C 075:608 JLINK_WriteMem(0x20000000, 0x0164 Bytes, ...) - Data: 00 BE 0A E0 0D 78 2D 06 68 40 08 24 40 00 00 D3 ... -- CPU_WriteMem(356 bytes @ 0x20000000)  returns 0x164 (0001ms, 0723ms total)
T438C 075:609 JLINK_WriteReg(R0, 0x08000000)  returns 0x00 (0000ms, 0723ms total)
T438C 075:609 JLINK_WriteReg(R1, 0x00B71B00)  returns 0x00 (0000ms, 0723ms total)
T438C 075:609 JLINK_WriteReg(R2, 0x00000002)  returns 0x00 (0000ms, 0723ms total)
T438C 075:609 JLINK_WriteReg(R3, 0x00000000)  returns 0x00 (0000ms, 0723ms total)
T438C 075:609 JLINK_WriteReg(R4, 0x00000000)  returns 0x00 (0000ms, 0723ms total)
T438C 075:609 JLINK_WriteReg(R5, 0x00000000)  returns 0x00 (0000ms, 0723ms total)
T438C 075:609 JLINK_WriteReg(R6, 0x00000000)  returns 0x00 (0000ms, 0723ms total)
T438C 075:609 JLINK_WriteReg(R7, 0x00000000)  returns 0x00 (0001ms, 0724ms total)
T438C 075:610 JLINK_WriteReg(R8, 0x00000000)  returns 0x00 (0000ms, 0724ms total)
T438C 075:610 JLINK_WriteReg(R9, 0x20000160)  returns 0x00 (0000ms, 0724ms total)
T438C 075:610 JLINK_WriteReg(R10, 0x00000000)  returns 0x00 (0000ms, 0724ms total)
T438C 075:610 JLINK_WriteReg(R11, 0x00000000)  returns 0x00 (0000ms, 0724ms total)
T438C 075:610 JLINK_WriteReg(R12, 0x00000000)  returns 0x00 (0000ms, 0724ms total)
T438C 075:610 JLINK_WriteReg(R13 (SP), 0x20001000)  returns 0x00 (0000ms, 0724ms total)
T438C 075:610 JLINK_WriteReg(R14, 0x20000001)  returns 0x00 (0000ms, 0724ms total)
T438C 075:610 JLINK_WriteReg(R15 (PC), 0x20000038)  returns 0x00 (0000ms, 0724ms total)
T438C 075:610 JLINK_WriteReg(XPSR, 0x01000000)  returns 0x00 (0000ms, 0724ms total)
T438C 075:610 JLINK_WriteReg(MSP, 0x20001000)  returns 0x00 (0000ms, 0724ms total)
T438C 075:610 JLINK_WriteReg(PSP, 0x20001000)  returns 0x00 (0000ms, 0724ms total)
T438C 075:610 JLINK_WriteReg(CFBP, 0x00000000)  returns 0x00 (0000ms, 0724ms total)
T438C 075:610 JLINK_SetBPEx(Addr = 0x20000000, Type = 0xFFFFFFF2) -- CPU_ReadMem(2 bytes @ 0x20000000)  returns 0x00000005 (0000ms, 0724ms total)
T438C 075:610 JLINK_Go() -- CPU_WriteMem(2 bytes @ 0x20000000) (0002ms, 0726ms total)
T438C 075:612 JLINK_IsHalted() -- CPU_ReadMem(2 bytes @ 0x20000000)  returns TRUE (0002ms, 0728ms total)
T438C 075:614 JLINK_ReadReg(R15 (PC))  returns 0x20000000 (0000ms, 0726ms total)
T438C 075:614 JLINK_ClrBPEx(BPHandle = 0x00000005)  returns 0x00 (0000ms, 0726ms total)
T438C 075:614 JLINK_ReadReg(R0)  returns 0x00000000 (0000ms, 0726ms total)
T438C 075:615 JLINK_WriteMem(0x20000164, 0x029C Bytes, ...) - Data: 80 04 00 20 45 01 00 08 41 04 00 08 7B 03 00 08 ... -- CPU_WriteMem(668 bytes @ 0x20000164)  returns 0x29C (0002ms, 0728ms total)
T438C 075:617 JLINK_WriteMem(0x20000400, 0x0164 Bytes, ...) - Data: 4F F0 01 0C 0C FA 00 F3 B1 F8 00 C0 0C EA 03 06 ... -- CPU_WriteMem(356 bytes @ 0x20000400)  returns 0x164 (0002ms, 0730ms total)
T438C 075:619 JLINK_WriteReg(R0, 0x08000000)  returns 0x00 (0000ms, 0730ms total)
T438C 075:619 JLINK_WriteReg(R1, 0x00000400)  returns 0x00 (0000ms, 0730ms total)
T438C 075:619 JLINK_WriteReg(R2, 0x20000164)  returns 0x00 (0000ms, 0730ms total)
T438C 075:619 JLINK_WriteReg(R3, 0x00000000)  returns 0x00 (0000ms, 0730ms total)
T438C 075:619 JLINK_WriteReg(R4, 0x00000000)  returns 0x00 (0000ms, 0730ms total)
T438C 075:619 JLINK_WriteReg(R5, 0x00000000)  returns 0x00 (0000ms, 0730ms total)
T438C 075:619 JLINK_WriteReg(R6, 0x00000000)  returns 0x00 (0000ms, 0730ms total)
T438C 075:619 JLINK_WriteReg(R7, 0x00000000)  returns 0x00 (0000ms, 0730ms total)
T438C 075:619 JLINK_WriteReg(R8, 0x00000000)  returns 0x00 (0000ms, 0730ms total)
T438C 075:619 JLINK_WriteReg(R9, 0x20000160)  returns 0x00 (0000ms, 0730ms total)
T438C 075:619 JLINK_WriteReg(R10, 0x00000000)  returns 0x00 (0000ms, 0730ms total)
T438C 075:619 JLINK_WriteReg(R11, 0x00000000)  returns 0x00 (0000ms, 0730ms total)
T438C 075:619 JLINK_WriteReg(R12, 0x00000000)  returns 0x00 (0000ms, 0730ms total)
T438C 075:619 JLINK_WriteReg(R13 (SP), 0x20001000)  returns 0x00 (0000ms, 0730ms total)
T438C 075:619 JLINK_WriteReg(R14, 0x20000001)  returns 0x00 (0000ms, 0730ms total)
T438C 075:619 JLINK_WriteReg(R15 (PC), 0x200000F4)  returns 0x00 (0000ms, 0730ms total)
T438C 075:619 JLINK_WriteReg(XPSR, 0x01000000)  returns 0x00 (0000ms, 0730ms total)
T438C 075:619 JLINK_WriteReg(MSP, 0x20001000)  returns 0x00 (0000ms, 0730ms total)
T438C 075:619 JLINK_WriteReg(PSP, 0x20001000)  returns 0x00 (0000ms, 0730ms total)
T438C 075:619 JLINK_WriteReg(CFBP, 0x00000000)  returns 0x00 (0000ms, 0730ms total)
T438C 075:619 JLINK_SetBPEx(Addr = 0x20000000, Type = 0xFFFFFFF2)  returns 0x00000006 (0000ms, 0730ms total)
T438C 075:619 JLINK_Go() (0002ms, 0732ms total)
T438C 075:621 JLINK_IsHalted()  returns FALSE (0000ms, 0732ms total)
T438C 075:629 JLINK_IsHalted()  returns FALSE (0000ms, 0732ms total)
T438C 075:631 JLINK_IsHalted()  returns FALSE (0000ms, 0732ms total)
T438C 075:633 JLINK_IsHalted()  returns FALSE (0000ms, 0732ms total)
T438C 075:635 JLINK_IsHalted()  returns FALSE (0000ms, 0732ms total)
T438C 075:637 JLINK_IsHalted()  returns FALSE (0000ms, 0732ms total)
T438C 075:639 JLINK_IsHalted()  returns FALSE (0000ms, 0732ms total)
T438C 075:641 JLINK_IsHalted()  returns FALSE (0000ms, 0732ms total)
T438C 075:643 JLINK_IsHalted()  returns FALSE (0000ms, 0732ms total)
T438C 075:644 JLINK_IsHalted()  returns FALSE (0000ms, 0732ms total)
T438C 075:646 JLINK_IsHalted()  returns FALSE (0000ms, 0732ms total)
T438C 075:648 JLINK_IsHalted()  returns FALSE (0000ms, 0732ms total)
T438C 075:650 JLINK_IsHalted()  returns FALSE (0000ms, 0732ms total)
T438C 075:652 JLINK_IsHalted() -- CPU_ReadMem(2 bytes @ 0x20000000)  returns TRUE (0002ms, 0734ms total)
T438C 075:654 JLINK_ReadReg(R15 (PC))  returns 0x20000000 (0000ms, 0732ms total)
T438C 075:654 JLINK_ClrBPEx(BPHandle = 0x00000006)  returns 0x00 (0000ms, 0732ms total)
T438C 075:654 JLINK_ReadReg(R0)  returns 0x00000000 (0000ms, 0732ms total)
T438C 075:655 JLINK_WriteMem(0x20000164, 0x029C Bytes, ...) - Data: 80 20 05 90 80 00 07 90 00 20 08 90 4F F4 00 50 ... -- CPU_WriteMem(668 bytes @ 0x20000164)  returns 0x29C (0002ms, 0734ms total)
T438C 075:657 JLINK_WriteMem(0x20000400, 0x0164 Bytes, ...) - Data: 38 37 36 35 3C 3B 3A 39 40 3F 3E 3D 44 43 42 41 ... -- CPU_WriteMem(356 bytes @ 0x20000400)  returns 0x164 (0002ms, 0736ms total)
T438C 075:659 JLINK_WriteReg(R0, 0x08000400)  returns 0x00 (0000ms, 0736ms total)
T438C 075:659 JLINK_WriteReg(R1, 0x000002F8)  returns 0x00 (0000ms, 0736ms total)
T438C 075:659 JLINK_WriteReg(R2, 0x20000164)  returns 0x00 (0000ms, 0736ms total)
T438C 075:659 JLINK_WriteReg(R3, 0x00000000)  returns 0x00 (0000ms, 0736ms total)
T438C 075:659 JLINK_WriteReg(R4, 0x00000000)  returns 0x00 (0000ms, 0736ms total)
T438C 075:659 JLINK_WriteReg(R5, 0x00000000)  returns 0x00 (0000ms, 0736ms total)
T438C 075:659 JLINK_WriteReg(R6, 0x00000000)  returns 0x00 (0000ms, 0736ms total)
T438C 075:659 JLINK_WriteReg(R7, 0x00000000)  returns 0x00 (0000ms, 0736ms total)
T438C 075:659 JLINK_WriteReg(R8, 0x00000000)  returns 0x00 (0000ms, 0736ms total)
T438C 075:659 JLINK_WriteReg(R9, 0x20000160)  returns 0x00 (0000ms, 0736ms total)
T438C 075:659 JLINK_WriteReg(R10, 0x00000000)  returns 0x00 (0000ms, 0736ms total)
T438C 075:659 JLINK_WriteReg(R11, 0x00000000)  returns 0x00 (0000ms, 0736ms total)
T438C 075:659 JLINK_WriteReg(R12, 0x00000000)  returns 0x00 (0000ms, 0736ms total)
T438C 075:659 JLINK_WriteReg(R13 (SP), 0x20001000)  returns 0x00 (0000ms, 0736ms total)
T438C 075:659 JLINK_WriteReg(R14, 0x20000001)  returns 0x00 (0000ms, 0736ms total)
T438C 075:659 JLINK_WriteReg(R15 (PC), 0x200000F4)  returns 0x00 (0000ms, 0736ms total)
T438C 075:659 JLINK_WriteReg(XPSR, 0x01000000)  returns 0x00 (0000ms, 0736ms total)
T438C 075:659 JLINK_WriteReg(MSP, 0x20001000)  returns 0x00 (0000ms, 0736ms total)
T438C 075:659 JLINK_WriteReg(PSP, 0x20001000)  returns 0x00 (0000ms, 0736ms total)
T438C 075:659 JLINK_WriteReg(CFBP, 0x00000000)  returns 0x00 (0000ms, 0736ms total)
T438C 075:659 JLINK_SetBPEx(Addr = 0x20000000, Type = 0xFFFFFFF2)  returns 0x00000007 (0000ms, 0736ms total)
T438C 075:659 JLINK_Go() (0001ms, 0737ms total)
T438C 075:660 JLINK_IsHalted()  returns FALSE (0001ms, 0738ms total)
T438C 075:663 JLINK_IsHalted()  returns FALSE (0000ms, 0737ms total)
T438C 075:666 JLINK_IsHalted()  returns FALSE (0000ms, 0737ms total)
T438C 075:668 JLINK_IsHalted()  returns FALSE (0000ms, 0737ms total)
T438C 075:670 JLINK_IsHalted()  returns FALSE (0000ms, 0737ms total)
T438C 075:672 JLINK_IsHalted()  returns FALSE (0000ms, 0737ms total)
T438C 075:674 JLINK_IsHalted()  returns FALSE (0000ms, 0737ms total)
T438C 075:676 JLINK_IsHalted()  returns FALSE (0000ms, 0737ms total)
T438C 075:677 JLINK_IsHalted()  returns FALSE (0000ms, 0737ms total)
T438C 075:679 JLINK_IsHalted()  returns FALSE (0000ms, 0737ms total)
T438C 075:681 JLINK_IsHalted()  returns FALSE (0000ms, 0737ms total)
T438C 075:683 JLINK_IsHalted()  returns FALSE (0000ms, 0737ms total)
T438C 075:685 JLINK_IsHalted() -- CPU_ReadMem(2 bytes @ 0x20000000)  returns TRUE (0002ms, 0739ms total)
T438C 075:687 JLINK_ReadReg(R15 (PC))  returns 0x20000000 (0000ms, 0737ms total)
T438C 075:687 JLINK_ClrBPEx(BPHandle = 0x00000007)  returns 0x00 (0000ms, 0737ms total)
T438C 075:687 JLINK_ReadReg(R0)  returns 0x00000000 (0000ms, 0737ms total)
T438C 075:687 JLINK_WriteReg(R0, 0x00000002)  returns 0x00 (0000ms, 0737ms total)
T438C 075:687 JLINK_WriteReg(R1, 0x000002F8)  returns 0x00 (0000ms, 0737ms total)
T438C 075:687 JLINK_WriteReg(R2, 0x20000164)  returns 0x00 (0000ms, 0737ms total)
T438C 075:687 JLINK_WriteReg(R3, 0x00000000)  returns 0x00 (0000ms, 0737ms total)
T438C 075:687 JLINK_WriteReg(R4, 0x00000000)  returns 0x00 (0000ms, 0737ms total)
T438C 075:687 JLINK_WriteReg(R5, 0x00000000)  returns 0x00 (0000ms, 0737ms total)
T438C 075:687 JLINK_WriteReg(R6, 0x00000000)  returns 0x00 (0000ms, 0737ms total)
T438C 075:687 JLINK_WriteReg(R7, 0x00000000)  returns 0x00 (0000ms, 0737ms total)
T438C 075:687 JLINK_WriteReg(R8, 0x00000000)  returns 0x00 (0000ms, 0737ms total)
T438C 075:687 JLINK_WriteReg(R9, 0x20000160)  returns 0x00 (0000ms, 0737ms total)
T438C 075:687 JLINK_WriteReg(R10, 0x00000000)  returns 0x00 (0000ms, 0737ms total)
T438C 075:687 JLINK_WriteReg(R11, 0x00000000)  returns 0x00 (0000ms, 0737ms total)
T438C 075:687 JLINK_WriteReg(R12, 0x00000000)  returns 0x00 (0000ms, 0737ms total)
T438C 075:687 JLINK_WriteReg(R13 (SP), 0x20001000)  returns 0x00 (0000ms, 0737ms total)
T438C 075:687 JLINK_WriteReg(R14, 0x20000001)  returns 0x00 (0000ms, 0737ms total)
T438C 075:687 JLINK_WriteReg(R15 (PC), 0x2000006A)  returns 0x00 (0000ms, 0737ms total)
T438C 075:687 JLINK_WriteReg(XPSR, 0x01000000)  returns 0x00 (0000ms, 0737ms total)
T438C 075:687 JLINK_WriteReg(MSP, 0x20001000)  returns 0x00 (0000ms, 0737ms total)
T438C 075:687 JLINK_WriteReg(PSP, 0x20001000)  returns 0x00 (0000ms, 0737ms total)
T438C 075:687 JLINK_WriteReg(CFBP, 0x00000000)  returns 0x00 (0000ms, 0737ms total)
T438C 075:687 JLINK_SetBPEx(Addr = 0x20000000, Type = 0xFFFFFFF2)  returns 0x00000008 (0000ms, 0737ms total)
T438C 075:687 JLINK_Go() (0002ms, 0739ms total)
T438C 075:689 JLINK_IsHalted() -- CPU_ReadMem(2 bytes @ 0x20000000)  returns TRUE (0002ms, 0741ms total)
T438C 075:691 JLINK_ReadReg(R15 (PC))  returns 0x20000000 (0000ms, 0739ms total)
T438C 075:691 JLINK_ClrBPEx(BPHandle = 0x00000008)  returns 0x00 (0000ms, 0739ms total)
T438C 075:691 JLINK_ReadReg(R0)  returns 0x00000000 (0000ms, 0739ms total)
T438C 075:747 JLINK_WriteMem(0x20000000, 0x0164 Bytes, ...) - Data: 00 BE 0A E0 0D 78 2D 06 68 40 08 24 40 00 00 D3 ... -- CPU_WriteMem(356 bytes @ 0x20000000)  returns 0x164 (0002ms, 0741ms total)
T438C 075:749 JLINK_WriteReg(R0, 0x08000000)  returns 0x00 (0000ms, 0741ms total)
T438C 075:749 JLINK_WriteReg(R1, 0x00B71B00)  returns 0x00 (0000ms, 0741ms total)
T438C 075:749 JLINK_WriteReg(R2, 0x00000003)  returns 0x00 (0000ms, 0741ms total)
T438C 075:749 JLINK_WriteReg(R3, 0x00000000)  returns 0x00 (0000ms, 0741ms total)
T438C 075:749 JLINK_WriteReg(R4, 0x00000000)  returns 0x00 (0000ms, 0741ms total)
T438C 075:749 JLINK_WriteReg(R5, 0x00000000)  returns 0x00 (0000ms, 0741ms total)
T438C 075:749 JLINK_WriteReg(R6, 0x00000000)  returns 0x00 (0000ms, 0741ms total)
T438C 075:749 JLINK_WriteReg(R7, 0x00000000)  returns 0x00 (0000ms, 0741ms total)
T438C 075:749 JLINK_WriteReg(R8, 0x00000000)  returns 0x00 (0000ms, 0741ms total)
T438C 075:749 JLINK_WriteReg(R9, 0x20000160)  returns 0x00 (0000ms, 0741ms total)
T438C 075:749 JLINK_WriteReg(R10, 0x00000000)  returns 0x00 (0000ms, 0741ms total)
T438C 075:749 JLINK_WriteReg(R11, 0x00000000)  returns 0x00 (0000ms, 0741ms total)
T438C 075:749 JLINK_WriteReg(R12, 0x00000000)  returns 0x00 (0000ms, 0741ms total)
T438C 075:749 JLINK_WriteReg(R13 (SP), 0x20001000)  returns 0x00 (0000ms, 0741ms total)
T438C 075:749 JLINK_WriteReg(R14, 0x20000001)  returns 0x00 (0000ms, 0741ms total)
T438C 075:749 JLINK_WriteReg(R15 (PC), 0x20000038)  returns 0x00 (0000ms, 0741ms total)
T438C 075:749 JLINK_WriteReg(XPSR, 0x01000000)  returns 0x00 (0000ms, 0741ms total)
T438C 075:749 JLINK_WriteReg(MSP, 0x20001000)  returns 0x00 (0000ms, 0741ms total)
T438C 075:749 JLINK_WriteReg(PSP, 0x20001000)  returns 0x00 (0000ms, 0741ms total)
T438C 075:749 JLINK_WriteReg(CFBP, 0x00000000)  returns 0x00 (0000ms, 0741ms total)
T438C 075:749 JLINK_SetBPEx(Addr = 0x20000000, Type = 0xFFFFFFF2) -- CPU_ReadMem(2 bytes @ 0x20000000)  returns 0x00000009 (0000ms, 0741ms total)
T438C 075:749 JLINK_Go() -- CPU_WriteMem(2 bytes @ 0x20000000) (0002ms, 0743ms total)
T438C 075:751 JLINK_IsHalted() -- CPU_ReadMem(2 bytes @ 0x20000000)  returns TRUE (0003ms, 0746ms total)
T438C 075:754 JLINK_ReadReg(R15 (PC))  returns 0x20000000 (0000ms, 0743ms total)
T438C 075:754 JLINK_ClrBPEx(BPHandle = 0x00000009)  returns 0x00 (0000ms, 0743ms total)
T438C 075:754 JLINK_ReadReg(R0)  returns 0x00000000 (0000ms, 0743ms total)
T438C 075:754 JLINK_WriteReg(R0, 0xFFFFFFFF)  returns 0x00 (0000ms, 0743ms total)
T438C 075:754 JLINK_WriteReg(R1, 0x08000000)  returns 0x00 (0000ms, 0743ms total)
T438C 075:754 JLINK_WriteReg(R2, 0x000006F8)  returns 0x00 (0000ms, 0743ms total)
T438C 075:754 JLINK_WriteReg(R3, 0x04C11DB7)  returns 0x00 (0000ms, 0743ms total)
T438C 075:754 JLINK_WriteReg(R4, 0x00000000)  returns 0x00 (0000ms, 0743ms total)
T438C 075:754 JLINK_WriteReg(R5, 0x00000000)  returns 0x00 (0000ms, 0743ms total)
T438C 075:754 JLINK_WriteReg(R6, 0x00000000)  returns 0x00 (0000ms, 0743ms total)
T438C 075:754 JLINK_WriteReg(R7, 0x00000000)  returns 0x00 (0000ms, 0743ms total)
T438C 075:754 JLINK_WriteReg(R8, 0x00000000)  returns 0x00 (0000ms, 0743ms total)
T438C 075:754 JLINK_WriteReg(R9, 0x20000160)  returns 0x00 (0000ms, 0743ms total)
T438C 075:754 JLINK_WriteReg(R10, 0x00000000)  returns 0x00 (0000ms, 0743ms total)
T438C 075:754 JLINK_WriteReg(R11, 0x00000000)  returns 0x00 (0000ms, 0743ms total)
T438C 075:754 JLINK_WriteReg(R12, 0x00000000)  returns 0x00 (0000ms, 0743ms total)
T438C 075:754 JLINK_WriteReg(R13 (SP), 0x20001000)  returns 0x00 (0000ms, 0743ms total)
T438C 075:754 JLINK_WriteReg(R14, 0x20000001)  returns 0x00 (0000ms, 0743ms total)
T438C 075:754 JLINK_WriteReg(R15 (PC), 0x20000002)  returns 0x00 (0000ms, 0743ms total)
T438C 075:754 JLINK_WriteReg(XPSR, 0x01000000)  returns 0x00 (0000ms, 0743ms total)
T438C 075:754 JLINK_WriteReg(MSP, 0x20001000)  returns 0x00 (0000ms, 0743ms total)
T438C 075:754 JLINK_WriteReg(PSP, 0x20001000)  returns 0x00 (0000ms, 0743ms total)
T438C 075:754 JLINK_WriteReg(CFBP, 0x00000000)  returns 0x00 (0000ms, 0743ms total)
T438C 075:754 JLINK_SetBPEx(Addr = 0x20000000, Type = 0xFFFFFFF2)  returns 0x0000000A (0000ms, 0743ms total)
T438C 075:754 JLINK_Go() (0001ms, 0744ms total)
T438C 075:755 JLINK_IsHalted()  returns FALSE (0000ms, 0744ms total)
T438C 075:759 JLINK_IsHalted()  returns FALSE (0000ms, 0744ms total)
T438C 075:763 JLINK_IsHalted()  returns FALSE (0000ms, 0744ms total)
T438C 075:765 JLINK_IsHalted()  returns FALSE (0000ms, 0744ms total)
T438C 075:767 JLINK_IsHalted()  returns FALSE (0000ms, 0744ms total)
T438C 075:769 JLINK_IsHalted()  returns FALSE (0000ms, 0744ms total)
T438C 075:771 JLINK_IsHalted()  returns FALSE (0000ms, 0744ms total)
T438C 075:773 JLINK_IsHalted()  returns FALSE (0000ms, 0744ms total)
T438C 075:774 JLINK_IsHalted()  returns FALSE (0000ms, 0744ms total)
T438C 075:776 JLINK_IsHalted() -- CPU_ReadMem(2 bytes @ 0x20000000)  returns TRUE (0002ms, 0746ms total)
T438C 075:778 JLINK_ReadReg(R15 (PC))  returns 0x20000000 (0000ms, 0744ms total)
T438C 075:778 JLINK_ClrBPEx(BPHandle = 0x0000000A)  returns 0x00 (0000ms, 0744ms total)
T438C 075:778 JLINK_ReadReg(R0)  returns 0x7ABFB1EE (0000ms, 0744ms total)
T438C 075:779 JLINK_WriteReg(R0, 0x00000003)  returns 0x00 (0000ms, 0744ms total)
T438C 075:779 JLINK_WriteReg(R1, 0x08000000)  returns 0x00 (0000ms, 0744ms total)
T438C 075:779 JLINK_WriteReg(R2, 0x000006F8)  returns 0x00 (0000ms, 0744ms total)
T438C 075:779 JLINK_WriteReg(R3, 0x04C11DB7)  returns 0x00 (0000ms, 0744ms total)
T438C 075:779 JLINK_WriteReg(R4, 0x00000000)  returns 0x00 (0000ms, 0744ms total)
T438C 075:779 JLINK_WriteReg(R5, 0x00000000)  returns 0x00 (0000ms, 0744ms total)
T438C 075:779 JLINK_WriteReg(R6, 0x00000000)  returns 0x00 (0000ms, 0744ms total)
T438C 075:779 JLINK_WriteReg(R7, 0x00000000)  returns 0x00 (0000ms, 0744ms total)
T438C 075:779 JLINK_WriteReg(R8, 0x00000000)  returns 0x00 (0000ms, 0744ms total)
T438C 075:779 JLINK_WriteReg(R9, 0x20000160)  returns 0x00 (0000ms, 0744ms total)
T438C 075:779 JLINK_WriteReg(R10, 0x00000000)  returns 0x00 (0000ms, 0744ms total)
T438C 075:779 JLINK_WriteReg(R11, 0x00000000)  returns 0x00 (0000ms, 0744ms total)
T438C 075:779 JLINK_WriteReg(R12, 0x00000000)  returns 0x00 (0000ms, 0744ms total)
T438C 075:779 JLINK_WriteReg(R13 (SP), 0x20001000)  returns 0x00 (0000ms, 0744ms total)
T438C 075:779 JLINK_WriteReg(R14, 0x20000001)  returns 0x00 (0000ms, 0744ms total)
T438C 075:779 JLINK_WriteReg(R15 (PC), 0x2000006A)  returns 0x00 (0000ms, 0744ms total)
T438C 075:779 JLINK_WriteReg(XPSR, 0x01000000)  returns 0x00 (0000ms, 0744ms total)
T438C 075:779 JLINK_WriteReg(MSP, 0x20001000)  returns 0x00 (0000ms, 0744ms total)
T438C 075:779 JLINK_WriteReg(PSP, 0x20001000)  returns 0x00 (0000ms, 0744ms total)
T438C 075:779 JLINK_WriteReg(CFBP, 0x00000000)  returns 0x00 (0000ms, 0744ms total)
T438C 075:779 JLINK_SetBPEx(Addr = 0x20000000, Type = 0xFFFFFFF2)  returns 0x0000000B (0000ms, 0744ms total)
T438C 075:779 JLINK_Go() (0001ms, 0745ms total)
T438C 075:780 JLINK_IsHalted() -- CPU_ReadMem(2 bytes @ 0x20000000)  returns TRUE (0002ms, 0747ms total)
T438C 075:782 JLINK_ReadReg(R15 (PC))  returns 0x20000000 (0000ms, 0745ms total)
T438C 075:782 JLINK_ClrBPEx(BPHandle = 0x0000000B)  returns 0x00 (0000ms, 0745ms total)
T438C 075:782 JLINK_ReadReg(R0)  returns 0x00000000 (0000ms, 0745ms total)
T438C 075:836 JLINK_WriteMemEx(0x20000000, 0x0002 Bytes, ..., AccessWidth = 33554432) - Data: FE E7Mis-aligned memory write: Address: 0x20000000, NumBytes: 2, Alignment: 2 (Halfword-aligned)
  ***** Mis-aligned memory write: Address: 0x20000000, NumBytes: 2, Alignment: 2 (Halfword-aligned) -- CPU_WriteMem(2 bytes @ 0x20000000)  returns 0x02 (0002ms, 0747ms total)
T438C 075:838 JLINK_SetResetType(JLINKARM_RESET_TYPE_NORMAL)  returns JLINKARM_RESET_TYPE_NORMAL (0000ms, 0747ms total)
T438C 075:838 JLINK_Reset() -- CPU_WriteMem(4 bytes @ 0xE000EDF0) -- CPU_WriteMem(4 bytes @ 0xE000EDFC) >0x35 TIF> -- CPU_WriteMem(4 bytes @ 0xE000ED0C) -- CPU_ReadMem(4 bytes @ 0xE000EDF0) -- CPU_ReadMem(4 bytes @ 0xE000EDF0) -- CPU_WriteMem(4 bytes @ 0xE000EDF0) -- CPU_WriteMem(4 bytes @ 0xE000EDFC) -- CPU is running -- CPU_ReadMem(4 bytes @ 0xE000EDF0) -- CPU_WriteMem(4 bytes @ 0xE0002000) -- CPU_ReadMem(4 bytes @ 0xE000EDFC) -- CPU_ReadMem(4 bytes @ 0xE0001000) (0017ms, 0764ms total)
T438C 075:855 JLINK_Go() -- CPU_WriteMem(4 bytes @ 0xE0002008) -- CPU_WriteMem(4 bytes @ 0xE000200C) -- CPU_WriteMem(4 bytes @ 0xE0002010) -- CPU_WriteMem(4 bytes @ 0xE0002014) -- CPU_WriteMem(4 bytes @ 0xE0002018) -- CPU_WriteMem(4 bytes @ 0xE000201C) -- CPU_WriteMem(4 bytes @ 0xE0001004) (0002ms, 0766ms total)
T438C 076:148 JLINK_Close() -- CPU is running -- CPU_WriteMem(4 bytes @ 0xE0002008) -- CPU is running -- CPU_WriteMem(4 bytes @ 0xE000200C) -- CPU is running -- CPU_WriteMem(4 bytes @ 0xE0002010) -- CPU is running -- CPU_WriteMem(4 bytes @ 0xE0002014) -- CPU is running -- CPU_WriteMem(4 bytes @ 0xE0002018) -- CPU is running -- CPU_WriteMem(4 bytes @ 0xE000201C) >0x42 TIF> >0x28 TIF> >0x0D TIF> >0x21 TIF> (0003ms, 0769ms total)
T438C 076:148  (0003ms, 0769ms total)
T438C 076:148 Closed (0003ms, 0769ms total)
